
T4F4C 000:001 SEGGER J-Link V6.16c Log File (0000ms, 0001ms total)
T4F4C 000:001 DLL Compiled: Jun 16 2017 18:14:49 (0000ms, 0001ms total)
T4F4C 000:001 Logging started @ 2022-08-31 15:51 (0000ms, 0001ms total)
T4F4C 000:001 JLINK_SetWarnOutHandler(...) (0000ms, 0001ms total)
T4F4C 000:001 JLINK_OpenEx(...)
Firmware: J-Link V9 compiled Dec 13 2019 11:14:50
Hardware: V9.70
S/N: 59701299
Feature(s): RDI, GDB, FlashDL, FlashBP, JFlashWEBSRV Webserver running on local port 19080 (0015ms, 0016ms total)
T4F4C 000:001   returns O.K. (0015ms, 0016ms total)
T4F4C 000:016 JLINK_GetEmuCaps()  returns 0xB9FF7BBF (0000ms, 0016ms total)
T4F4C 000:016 JLINK_TIF_GetAvailable(...) (0000ms, 0016ms total)
T4F4C 000:016 JLINK_SetErrorOutHandler(...) (0000ms, 0016ms total)
T4F4C 000:016 JLINK_ExecCommand("ProjectFile = "E:\DeskTop\keil5_project\STM32_Project\stm32f407_EtherCat_slvaeinfo\Project\JLinkSettings.ini"", ...).   returns 0x00 (0067ms, 0083ms total)
T4F4C 000:083 JLINK_ExecCommand("Device = STM32F407IE", ...). Device "STM32F407IE" selected.  returns 0x00 (0000ms, 0083ms total)
T4F4C 000:083 JLINK_ExecCommand("DisableConnectionTimeout", ...).   returns 0x01 (0000ms, 0083ms total)
T4F4C 000:084 JLINK_GetHardwareVersion()  returns 0x17AE8 (0000ms, 0083ms total)
T4F4C 000:084 JLINK_GetDLLVersion()  returns 61603 (0000ms, 0083ms total)
T4F4C 000:084 JLINK_GetFirmwareString(...) (0000ms, 0083ms total)
T4F4C 000:084 JLINK_GetDLLVersion()  returns 61603 (0000ms, 0083ms total)
T4F4C 000:084 JLINK_GetCompileDateTime() (0000ms, 0083ms total)
T4F4C 000:084 JLINK_GetFirmwareString(...) (0000ms, 0083ms total)
T4F4C 000:084 JLINK_GetHardwareVersion()  returns 0x17AE8 (0000ms, 0083ms total)
T4F4C 000:084 JLINK_TIF_Select(JLINKARM_TIF_SWD)  returns 0x00 (0000ms, 0083ms total)
T4F4C 000:084 JLINK_SetSpeed(5000) (0000ms, 0083ms total)
T4F4C 000:084 JLINK_GetId() >0x10B TIF>Found SW-DP with ID 0x2BA01477 >0x0D TIF> >0x28 TIF> >0x0D TIF> >0x28 TIF> >0x0D TIF> >0x28 TIF> >0x0D TIF> >0x28 TIF> >0x0D TIF> >0x21 TIF> >0x0D TIF> >0x28 TIF> >0x0D TIF> >0x28 TIF> >0x0D TIF> >0x28 TIF> >0x0D TIF> >0x21 TIF> >0x0D TIF> >0x21 TIF> >0x0D TIF> >0x28 TIF> >0x0D TIF> >0x21 TIF> >0x0D TIF> >0x21 TIF> >0x0D TIF> >0x28 TIF> >0x0D TIF> >0x21 TIF> >0x0D TIF> >0x21 TIF> >0x0D TIF> >0x28 TIF> >0x0D TIF> >0x21 TIF> >0x0D TIF> >0x21 TIF> >0x0D TIF> >0x28 TIF>
 >0x0D TIF> >0x21 TIF> >0x0D TIF> >0x21 TIF> >0x0D TIF> >0x28 TIF> >0x0D TIF> >0x21 TIF> >0x0D TIF> >0x21 TIF> >0x10B TIF>Found SW-DP with ID 0x2BA01477 >0x0D TIF> >0x28 TIF> >0x0D TIF> >0x28 TIF> >0x0D TIF> >0x28 TIF> >0x0D TIF> >0x28 TIF> >0x0D TIF> >0x21 TIF> >0x0D TIF> >0x28 TIF>Scanning APs, stopping at first AHB-AP found. >0x0D TIF> >0x28 TIF> >0x0D TIF> >0x21 TIF> >0x0D TIF> >0x21 TIF>AP[0] IDR: 0x24770011 (AHB-AP) >0x0D TIF> >0x28 TIF> >0x0D TIF> >0x21 TIF> >0x0D TIF> >0x21 TIF>
AHB-AP ROM: 0xE00FF000 (Base addr. of first ROM table) >0x0D TIF> >0x28 TIF> >0x0D TIF> >0x28 TIF> >0x0D TIF> >0x28 TIF> >0x0D TIF> >0x21 TIF> >0x0D TIF> >0x21 TIF> >0x0D TIF> >0x28 TIF> >0x0D TIF> >0x21 TIF> >0x0D TIF> >0x21 TIF>CPUID reg: 0x410FC241. Implementer code: 0x41 (ARM)Found Cortex-M4 r0p1, Little endian. -- CPU_ReadMem(4 bytes @ 0xE000EDF0) -- CPU_WriteMem(4 bytes @ 0xE000EDF0) -- CPU_ReadMem(4 bytes @ 0xE0002000)FPUnit: 6 code (BP) slots and 2 literal slots
 -- CPU_ReadMem(4 bytes @ 0xE000EDFC) -- CPU_WriteMem(4 bytes @ 0xE000EDFC) -- CPU_ReadMem(4 bytes @ 0xE0001000) -- CPU_WriteMem(4 bytes @ 0xE0001000) -- CPU_ReadMem(4 bytes @ 0xE000ED88) -- CPU_WriteMem(4 bytes @ 0xE000ED88) -- CPU_ReadMem(4 bytes @ 0xE000ED88) -- CPU_WriteMem(4 bytes @ 0xE000ED88)CoreSight components:ROMTbl[0] @ E00FF000 -- CPU_ReadMem(16 bytes @ 0xE00FF000) -- CPU_ReadMem(16 bytes @ 0xE000EFF0) -- CPU_ReadMem(16 bytes @ 0xE000EFE0)
ROMTbl[0][0]: E000E000, CID: B105E00D, PID: 000BB00C SCS -- CPU_ReadMem(16 bytes @ 0xE0001FF0) -- CPU_ReadMem(16 bytes @ 0xE0001FE0)ROMTbl[0][1]: E0001000, CID: B105E00D, PID: 003BB002 DWT -- CPU_ReadMem(16 bytes @ 0xE0002FF0) -- CPU_ReadMem(16 bytes @ 0xE0002FE0)ROMTbl[0][2]: E0002000, CID: B105E00D, PID: 002BB003 FPB -- CPU_ReadMem(16 bytes @ 0xE0000FF0) -- CPU_ReadMem(16 bytes @ 0xE0000FE0)ROMTbl[0][3]: E0000000, CID: B105E00D, PID: 003BB001 ITM -- CPU_ReadMem(16 bytes @ 0xE00FF010)
 -- CPU_ReadMem(16 bytes @ 0xE0040FF0) -- CPU_ReadMem(16 bytes @ 0xE0040FE0)ROMTbl[0][4]: E0040000, CID: B105900D, PID: 000BB9A1 TPIU -- CPU_ReadMem(16 bytes @ 0xE0041FF0) -- CPU_ReadMem(16 bytes @ 0xE0041FE0)ROMTbl[0][5]: E0041000, CID: B105900D, PID: 000BB925 ETM >0x0D TIF> >0x21 TIF>  returns 0x2BA01477 (0023ms, 0106ms total)
T4F4C 000:107 JLINK_GetDLLVersion()  returns 61603 (0000ms, 0106ms total)
T4F4C 000:107 JLINK_CORE_GetFound()  returns 0xE0000FF (0000ms, 0106ms total)
T4F4C 000:107 JLINK_GetDebugInfo(0x100 = JLINKARM_ROM_TABLE_ADDR_INDEX) -- Value=0xE00FF000  returns 0x00 (0000ms, 0106ms total)
T4F4C 000:107 JLINK_GetDebugInfo(0x100 = JLINKARM_ROM_TABLE_ADDR_INDEX) -- Value=0xE00FF000  returns 0x00 (0000ms, 0106ms total)
T4F4C 000:107 JLINK_GetDebugInfo(0x101 = JLINKARM_DEBUG_INFO_ETM_ADDR_INDEX) -- Value=0xE0041000  returns 0x00 (0000ms, 0106ms total)
T4F4C 000:107 JLINK_ReadMemEx(0xE0041FD0, 0x0020 Bytes, ..., Flags = 0x02000004) -- CPU_ReadMem(32 bytes @ 0xE0041FD0) - Data: 04 00 00 00 00 00 00 00 00 00 00 00 00 00 00 00 ...  returns 0x20 (0000ms, 0106ms total)
T4F4C 000:107 JLINK_GetDebugInfo(0x102 = JLINKARM_DEBUG_INFO_MTB_ADDR_INDEX) -- Value=0x00000000  returns 0x00 (0000ms, 0106ms total)
T4F4C 000:107 JLINK_GetDebugInfo(0x103 = JLINKARM_DEBUG_INFO_TPIU_ADDR_INDEX) -- Value=0xE0040000  returns 0x00 (0000ms, 0106ms total)
T4F4C 000:107 JLINK_GetDebugInfo(0x104 = JLINKARM_DEBUG_INFO_ITM_ADDR_INDEX) -- Value=0xE0000000  returns 0x00 (0000ms, 0106ms total)
T4F4C 000:107 JLINK_GetDebugInfo(0x105 = JLINKARM_DEBUG_INFO_DWT_ADDR_INDEX) -- Value=0xE0001000  returns 0x00 (0000ms, 0106ms total)
T4F4C 000:107 JLINK_GetDebugInfo(0x106 = JLINKARM_DEBUG_INFO_FPB_ADDR_INDEX) -- Value=0xE0002000  returns 0x00 (0000ms, 0106ms total)
T4F4C 000:107 JLINK_GetDebugInfo(0x107 = JLINKARM_DEBUG_INFO_NVIC_ADDR_INDEX) -- Value=0xE000E000  returns 0x00 (0000ms, 0106ms total)
T4F4C 000:108 JLINK_GetDebugInfo(0x10C = JLINKARM_DEBUG_INFO_DBG_ADDR_INDEX) -- Value=0xE000EDF0  returns 0x00 (0000ms, 0107ms total)
T4F4C 000:108 JLINK_ReadMemU32(0xE000EF40, 0x0001 Items, ...) -- CPU_ReadMem(4 bytes @ 0xE000EF40) - Data: 21 00 11 10  returns 0x01 (0000ms, 0107ms total)
T4F4C 000:108 JLINK_ReadMemU32(0xE000EF44, 0x0001 Items, ...) -- CPU_ReadMem(4 bytes @ 0xE000EF44) - Data: 11 00 00 11  returns 0x01 (0000ms, 0107ms total)
T4F4C 000:108 JLINK_ReadMemU32(0xE000ED00, 0x0001 Items, ...) -- CPU_ReadMem(4 bytes @ 0xE000ED00) - Data: 41 C2 0F 41  returns 0x01 (0000ms, 0107ms total)
T4F4C 000:108 JLINK_GetDebugInfo(0x10F = JLINKARM_DEBUG_INFO_HAS_CORTEX_M_SECURITY_EXT_INDEX) -- Value=0x00000000  returns 0x00 (0000ms, 0107ms total)
T4F4C 000:108 JLINK_SetResetType(JLINKARM_CM3_RESET_TYPE_NORMAL)  returns JLINKARM_CM3_RESET_TYPE_NORMAL (0000ms, 0107ms total)
T4F4C 000:108 JLINK_Reset() -- CPU is running -- CPU_WriteMem(4 bytes @ 0xE000EDF0) -- CPU is running -- CPU_WriteMem(4 bytes @ 0xE000EDFC) >0x35 TIF>Setting AIRCR.SYSRESETREQ -- CPU is running -- CPU_WriteMem(4 bytes @ 0xE000ED0C) >0x0D TIF> >0x28 TIF> -- CPU_ReadMem(4 bytes @ 0xE000ED0C) -- CPU_ReadMem(4 bytes @ 0xE000EDF0) -- CPU_ReadMem(4 bytes @ 0xE000EDF0) -- CPU_ReadMem(4 bytes @ 0xE000EDF0) -- CPU is running -- CPU_WriteMem(4 bytes @ 0xE000EDF0) -- CPU is running
 -- CPU_WriteMem(4 bytes @ 0xE000EDFC) -- CPU_ReadMem(4 bytes @ 0xE000EDF0) -- CPU_WriteMem(4 bytes @ 0xE0002000) -- CPU_ReadMem(4 bytes @ 0xE000EDFC) -- CPU_ReadMem(4 bytes @ 0xE0001000) (0063ms, 0170ms total)
T4F4C 000:171 JLINK_ReadReg(R15 (PC))  returns 0x08000274 (0000ms, 0170ms total)
T4F4C 000:171 JLINK_ReadReg(XPSR)  returns 0x01000000 (0000ms, 0170ms total)
T4F4C 000:171 JLINK_Halt()  returns 0x00 (0000ms, 0170ms total)
T4F4C 000:171 JLINK_ReadMemU32(0xE000EDF0, 0x0001 Items, ...) -- CPU_ReadMem(4 bytes @ 0xE000EDF0) - Data: 03 00 03 00  returns 0x01 (0000ms, 0170ms total)
T4F4C 000:171 JLINK_WriteU32(0xE000EDF0, 0xA05F0003) -- CPU_WriteMem(4 bytes @ 0xE000EDF0)  returns 0x00 (0001ms, 0171ms total)
T4F4C 000:172 JLINK_WriteU32(0xE000EDFC, 0x01000000) -- CPU_WriteMem(4 bytes @ 0xE000EDFC)  returns 0x00 (0000ms, 0171ms total)
T4F4C 000:172 JLINK_GetHWStatus(...)  returns 0x00 (0000ms, 0171ms total)
T4F4C 000:172 JLINK_GetNumBPUnits(Type = 0xFFFFFF00)  returns 0x06 (0000ms, 0171ms total)
T4F4C 000:172 JLINK_GetNumBPUnits(Type = 0xF0)  returns 0x2000 (0000ms, 0171ms total)
T4F4C 000:172 JLINK_GetNumWPUnits()  returns 0x04 (0000ms, 0171ms total)
T4F4C 000:172 JLINK_GetSpeed()  returns 0xFA0 (0000ms, 0171ms total)
T4F4C 000:172 JLINK_ReadMemU32(0xE000E004, 0x0001 Items, ...) -- CPU_ReadMem(4 bytes @ 0xE000E004) - Data: 02 00 00 00  returns 0x01 (0001ms, 0172ms total)
T4F4C 000:173 JLINK_ReadMemU32(0xE000E004, 0x0001 Items, ...) -- CPU_ReadMem(4 bytes @ 0xE000E004) - Data: 02 00 00 00  returns 0x01 (0000ms, 0172ms total)
T4F4C 000:173 JLINK_WriteMemEx(0xE0001000, 0x001C Bytes, ..., Flags = 0x02000004) - Data: 01 00 00 00 00 00 00 00 00 00 00 00 00 00 00 00 ... -- CPU_WriteMem(28 bytes @ 0xE0001000)  returns 0x1C (0001ms, 0173ms total)
T4F4C 000:174 JLINK_ReadReg(R15 (PC))  returns 0x08000274 (0000ms, 0173ms total)
T4F4C 000:174 JLINK_ReadReg(XPSR)  returns 0x01000000 (0000ms, 0173ms total)
T4F4C 000:253 JLINK_SetResetType(JLINKARM_CM3_RESET_TYPE_NORMAL)  returns JLINKARM_CM3_RESET_TYPE_NORMAL (0000ms, 0173ms total)
T4F4C 000:253 JLINK_Reset() -- CPU_WriteMem(4 bytes @ 0xE000EDF0) -- CPU_WriteMem(4 bytes @ 0xE000EDFC) >0x35 TIF>Setting AIRCR.SYSRESETREQ -- CPU_WriteMem(4 bytes @ 0xE000ED0C) >0x0D TIF> >0x28 TIF> -- CPU_ReadMem(4 bytes @ 0xE000ED0C) -- CPU_ReadMem(4 bytes @ 0xE000EDF0) -- CPU_ReadMem(4 bytes @ 0xE000EDF0) -- CPU_ReadMem(4 bytes @ 0xE000EDF0) -- CPU_WriteMem(4 bytes @ 0xE000EDF0) -- CPU_WriteMem(4 bytes @ 0xE000EDFC) -- CPU_ReadMem(4 bytes @ 0xE000EDF0) -- CPU_WriteMem(4 bytes @ 0xE0002000)
 -- CPU_ReadMem(4 bytes @ 0xE000EDFC) -- CPU_ReadMem(4 bytes @ 0xE0001000) (0065ms, 0238ms total)
T4F4C 000:318 JLINK_ReadReg(R15 (PC))  returns 0x08000274 (0000ms, 0238ms total)
T4F4C 000:318 JLINK_ReadReg(XPSR)  returns 0x01000000 (0000ms, 0238ms total)
T4F4C 000:410 JLINK_ReadMemEx(0x08000274, 0x003C Bytes, ..., Flags = 0x02000000) -- CPU_ReadMem(128 bytes @ 0x08000240) -- Updating C cache (128 bytes @ 0x08000240) -- Read from C cache (60 bytes @ 0x08000274) - Data: 09 48 80 47 09 48 00 47 FE E7 FE E7 FE E7 FE E7 ...  returns 0x3C (0001ms, 0239ms total)
T4F4C 001:297 JLINK_ReadReg(R0)  returns 0x00000000 (0000ms, 0239ms total)
T4F4C 001:297 JLINK_ReadReg(R1)  returns 0x00000000 (0000ms, 0239ms total)
T4F4C 001:297 JLINK_ReadReg(R2)  returns 0x00000000 (0001ms, 0240ms total)
T4F4C 001:298 JLINK_ReadReg(R3)  returns 0x00000000 (0000ms, 0240ms total)
T4F4C 001:298 JLINK_ReadReg(R4)  returns 0x00000000 (0000ms, 0240ms total)
T4F4C 001:298 JLINK_ReadReg(R5)  returns 0x00000000 (0000ms, 0240ms total)
T4F4C 001:298 JLINK_ReadReg(R6)  returns 0x00000000 (0000ms, 0240ms total)
T4F4C 001:298 JLINK_ReadReg(R7)  returns 0x00000000 (0000ms, 0240ms total)
T4F4C 001:298 JLINK_ReadReg(R8)  returns 0x00000000 (0000ms, 0240ms total)
T4F4C 001:298 JLINK_ReadReg(R9)  returns 0x00000000 (0000ms, 0240ms total)
T4F4C 001:298 JLINK_ReadReg(R10)  returns 0x00000000 (0000ms, 0240ms total)
T4F4C 001:298 JLINK_ReadReg(R11)  returns 0x00000000 (0000ms, 0240ms total)
T4F4C 001:298 JLINK_ReadReg(R12)  returns 0x00000000 (0000ms, 0240ms total)
T4F4C 001:298 JLINK_ReadReg(R13 (SP))  returns 0x2000C780 (0000ms, 0240ms total)
T4F4C 001:298 JLINK_ReadReg(R14)  returns 0xFFFFFFFF (0000ms, 0240ms total)
T4F4C 001:298 JLINK_ReadReg(R15 (PC))  returns 0x08000274 (0000ms, 0240ms total)
T4F4C 001:298 JLINK_ReadReg(XPSR)  returns 0x01000000 (0000ms, 0240ms total)
T4F4C 001:298 JLINK_ReadReg(MSP)  returns 0x2000C780 (0000ms, 0240ms total)
T4F4C 001:298 JLINK_ReadReg(PSP)  returns 0x00000000 (0000ms, 0240ms total)
T4F4C 001:298 JLINK_ReadReg(CFBP)  returns 0x00000000 (0000ms, 0240ms total)
T4F4C 001:298 JLINK_ReadReg(FPSCR)  returns 0x00000000 (0003ms, 0243ms total)
T4F4C 001:301 JLINK_ReadReg(FPS0)  returns 0x00000000 (0000ms, 0243ms total)
T4F4C 001:301 JLINK_ReadReg(FPS1)  returns 0x00000000 (0000ms, 0243ms total)
T4F4C 001:301 JLINK_ReadReg(FPS2)  returns 0x00000000 (0000ms, 0243ms total)
T4F4C 001:301 JLINK_ReadReg(FPS3)  returns 0x00000000 (0000ms, 0243ms total)
T4F4C 001:301 JLINK_ReadReg(FPS4)  returns 0x00000000 (0001ms, 0244ms total)
T4F4C 001:302 JLINK_ReadReg(FPS5)  returns 0x00000000 (0000ms, 0244ms total)
T4F4C 001:302 JLINK_ReadReg(FPS6)  returns 0x00000000 (0000ms, 0244ms total)
T4F4C 001:302 JLINK_ReadReg(FPS7)  returns 0x00000000 (0000ms, 0244ms total)
T4F4C 001:302 JLINK_ReadReg(FPS8)  returns 0x00000000 (0000ms, 0244ms total)
T4F4C 001:302 JLINK_ReadReg(FPS9)  returns 0x00000000 (0000ms, 0244ms total)
T4F4C 001:302 JLINK_ReadReg(FPS10)  returns 0x00000000 (0000ms, 0244ms total)
T4F4C 001:302 JLINK_ReadReg(FPS11)  returns 0x00000000 (0000ms, 0244ms total)
T4F4C 001:302 JLINK_ReadReg(FPS12)  returns 0x00000000 (0000ms, 0244ms total)
T4F4C 001:302 JLINK_ReadReg(FPS13)  returns 0x00000000 (0000ms, 0244ms total)
T4F4C 001:302 JLINK_ReadReg(FPS14)  returns 0x00000000 (0000ms, 0244ms total)
T4F4C 001:302 JLINK_ReadReg(FPS15)  returns 0x00000000 (0000ms, 0244ms total)
T4F4C 001:302 JLINK_ReadReg(FPS16)  returns 0x00000000 (0000ms, 0244ms total)
T4F4C 001:302 JLINK_ReadReg(FPS17)  returns 0x00000000 (0000ms, 0244ms total)
T4F4C 001:302 JLINK_ReadReg(FPS18)  returns 0x00000000 (0000ms, 0244ms total)
T4F4C 001:302 JLINK_ReadReg(FPS19)  returns 0x00000000 (0000ms, 0244ms total)
T4F4C 001:302 JLINK_ReadReg(FPS20)  returns 0x00000000 (0000ms, 0244ms total)
T4F4C 001:302 JLINK_ReadReg(FPS21)  returns 0x00000000 (0000ms, 0244ms total)
T4F4C 001:302 JLINK_ReadReg(FPS22)  returns 0x00000000 (0000ms, 0244ms total)
T4F4C 001:302 JLINK_ReadReg(FPS23)  returns 0x00000000 (0000ms, 0244ms total)
T4F4C 001:302 JLINK_ReadReg(FPS24)  returns 0x00000000 (0000ms, 0244ms total)
T4F4C 001:302 JLINK_ReadReg(FPS25)  returns 0x00000000 (0000ms, 0244ms total)
T4F4C 001:302 JLINK_ReadReg(FPS26)  returns 0x00000000 (0000ms, 0244ms total)
T4F4C 001:302 JLINK_ReadReg(FPS27)  returns 0x00000000 (0000ms, 0244ms total)
T4F4C 001:302 JLINK_ReadReg(FPS28)  returns 0x00000000 (0000ms, 0244ms total)
T4F4C 001:302 JLINK_ReadReg(FPS29)  returns 0x00000000 (0000ms, 0244ms total)
T4F4C 001:302 JLINK_ReadReg(FPS30)  returns 0x00000000 (0000ms, 0244ms total)
T4F4C 001:302 JLINK_ReadReg(FPS31)  returns 0x00000000 (0000ms, 0244ms total)
T4F4C 001:306 JLINK_ReadMemEx(0x40000424, 0x0004 Bytes, ..., Flags = 0x02000000) -- CPU_ReadMem(4 bytes @ 0x40000424) - Data: 00 00 00 00  returns 0x04 (0000ms, 0244ms total)
T4F4C 001:311 JLINK_ReadMemEx(0x40000424, 0x0004 Bytes, ..., Flags = 0x02000000) -- CPU_ReadMem(4 bytes @ 0x40000424) - Data: 00 00 00 00  returns 0x04 (0000ms, 0244ms total)
T4F4C 001:311 JLINK_ReadMemEx(0x40000424, 0x0004 Bytes, ..., Flags = 0x02000000) -- CPU_ReadMem(4 bytes @ 0x40000424) - Data: 00 00 00 00  returns 0x04 (0001ms, 0245ms total)
T4F4C 001:314 JLINK_ReadMemEx(0x40000024, 0x0004 Bytes, ..., Flags = 0x02000000) -- CPU_ReadMem(4 bytes @ 0x40000024) - Data: 00 00 00 00  returns 0x04 (0001ms, 0246ms total)
T4F4C 001:315 JLINK_ReadMemEx(0x40000024, 0x0004 Bytes, ..., Flags = 0x02000000) -- CPU_ReadMem(4 bytes @ 0x40000024) - Data: 00 00 00 00  returns 0x04 (0000ms, 0246ms total)
T4F4C 001:315 JLINK_ReadMemEx(0x40000024, 0x0004 Bytes, ..., Flags = 0x02000000) -- CPU_ReadMem(4 bytes @ 0x40000024) - Data: 00 00 00 00  returns 0x04 (0001ms, 0247ms total)
T4F4C 001:318 JLINK_ReadMemEx(0x2000005C, 0x0004 Bytes, ..., Flags = 0x02000000) -- CPU_ReadMem(64 bytes @ 0x20000040) -- Updating C cache (64 bytes @ 0x20000040) -- Read from C cache (4 bytes @ 0x2000005C) - Data: 00 00 00 00  returns 0x04 (0001ms, 0248ms total)
T4C5C 001:348 JLINK_ReadMemEx(0x08000274, 0x0002 Bytes, ..., Flags = 0x02000000) -- Read from C cache (2 bytes @ 0x08000274) - Data: 09 48  returns 0x02 (0000ms, 0248ms total)
T4C5C 001:348 JLINK_SetBPEx(Addr = 0x080079E4, Type = 0xFFFFFFF2)  returns 0x00000001 (0000ms, 0248ms total)
T4C5C 001:348 JLINK_SetBPEx(Addr = 0x0800852E, Type = 0xFFFFFFF2)  returns 0x00000002 (0000ms, 0248ms total)
T4C5C 001:348 JLINK_Go() -- CPU_WriteMem(4 bytes @ 0xE0002000) -- CPU_WriteMem(4 bytes @ 0xE0002000) -- CPU_ReadMem(4 bytes @ 0xE0001000) -- CPU_WriteMem(4 bytes @ 0xE0002008) -- CPU_WriteMem(4 bytes @ 0xE000200C) -- CPU_WriteMem(4 bytes @ 0xE0002010) -- CPU_WriteMem(4 bytes @ 0xE0002014) -- CPU_WriteMem(4 bytes @ 0xE0002018) -- CPU_WriteMem(4 bytes @ 0xE000201C) -- CPU_WriteMem(4 bytes @ 0xE0001004) (0002ms, 0250ms total)
T4C5C 001:451 JLINK_IsHalted()  returns TRUE (0001ms, 0251ms total)
T4C5C 001:452 JLINK_Halt()  returns 0x00 (0000ms, 0250ms total)
T4C5C 001:452 JLINK_IsHalted()  returns TRUE (0000ms, 0250ms total)
T4C5C 001:452 JLINK_IsHalted()  returns TRUE (0000ms, 0250ms total)
T4C5C 001:452 JLINK_IsHalted()  returns TRUE (0000ms, 0250ms total)
T4C5C 001:452 JLINK_ReadReg(R15 (PC))  returns 0x080079E4 (0000ms, 0250ms total)
T4C5C 001:452 JLINK_ReadReg(XPSR)  returns 0x61000000 (0000ms, 0250ms total)
T4C5C 001:452 JLINK_ClrBPEx(BPHandle = 0x00000001)  returns 0x00 (0000ms, 0250ms total)
T4C5C 001:452 JLINK_ClrBPEx(BPHandle = 0x00000002)  returns 0x00 (0000ms, 0250ms total)
T4C5C 001:452 JLINK_ReadMemU32(0xE000ED30, 0x0001 Items, ...) -- CPU_ReadMem(4 bytes @ 0xE000ED30) - Data: 02 00 00 00  returns 0x01 (0001ms, 0251ms total)
T4C5C 001:453 JLINK_ReadMemU32(0xE0001028, 0x0001 Items, ...) -- CPU_ReadMem(4 bytes @ 0xE0001028) - Data: 00 00 00 00  returns 0x01 (0000ms, 0251ms total)
T4C5C 001:453 JLINK_ReadMemU32(0xE0001038, 0x0001 Items, ...) -- CPU_ReadMem(4 bytes @ 0xE0001038) - Data: 00 02 00 00  returns 0x01 (0000ms, 0251ms total)
T4C5C 001:453 JLINK_ReadMemU32(0xE0001048, 0x0001 Items, ...) -- CPU_ReadMem(4 bytes @ 0xE0001048) - Data: 00 00 00 00  returns 0x01 (0001ms, 0252ms total)
T4C5C 001:454 JLINK_ReadMemU32(0xE0001058, 0x0001 Items, ...) -- CPU_ReadMem(4 bytes @ 0xE0001058) - Data: 00 00 00 00  returns 0x01 (0000ms, 0252ms total)
T4C5C 001:454 JLINK_ReadReg(R0)  returns 0x2000C180 (0000ms, 0252ms total)
T4C5C 001:454 JLINK_ReadReg(R1)  returns 0x2000C380 (0000ms, 0252ms total)
T4C5C 001:454 JLINK_ReadReg(R2)  returns 0x2000C380 (0000ms, 0252ms total)
T4C5C 001:454 JLINK_ReadReg(R3)  returns 0x2000C380 (0000ms, 0252ms total)
T4C5C 001:454 JLINK_ReadReg(R4)  returns 0x00000000 (0000ms, 0252ms total)
T4C5C 001:454 JLINK_ReadReg(R5)  returns 0x2000C120 (0000ms, 0252ms total)
T4C5C 001:454 JLINK_ReadReg(R6)  returns 0x00000000 (0000ms, 0252ms total)
T4C5C 001:454 JLINK_ReadReg(R7)  returns 0x00000000 (0000ms, 0252ms total)
T4C5C 001:454 JLINK_ReadReg(R8)  returns 0x00000000 (0000ms, 0252ms total)
T4C5C 001:454 JLINK_ReadReg(R9)  returns 0x00000000 (0000ms, 0252ms total)
T4C5C 001:454 JLINK_ReadReg(R10)  returns 0x0800EAA8 (0000ms, 0252ms total)
T4C5C 001:454 JLINK_ReadReg(R11)  returns 0x00000000 (0000ms, 0252ms total)
T4C5C 001:454 JLINK_ReadReg(R12)  returns 0x2000C160 (0000ms, 0252ms total)
T4C5C 001:454 JLINK_ReadReg(R13 (SP))  returns 0x2000C780 (0000ms, 0252ms total)
T4C5C 001:454 JLINK_ReadReg(R14)  returns 0x08000265 (0000ms, 0252ms total)
T4C5C 001:454 JLINK_ReadReg(R15 (PC))  returns 0x080079E4 (0000ms, 0252ms total)
T4C5C 001:454 JLINK_ReadReg(XPSR)  returns 0x61000000 (0000ms, 0252ms total)
T4C5C 001:454 JLINK_ReadReg(MSP)  returns 0x2000C780 (0000ms, 0252ms total)
T4C5C 001:454 JLINK_ReadReg(PSP)  returns 0x00000000 (0000ms, 0252ms total)
T4C5C 001:454 JLINK_ReadReg(CFBP)  returns 0x04000000 (0000ms, 0252ms total)
T4C5C 001:454 JLINK_ReadReg(FPSCR)  returns 0x03000000 (0003ms, 0255ms total)
T4C5C 001:457 JLINK_ReadReg(FPS0)  returns 0x00000000 (0000ms, 0255ms total)
T4C5C 001:457 JLINK_ReadReg(FPS1)  returns 0x00000000 (0000ms, 0255ms total)
T4C5C 001:457 JLINK_ReadReg(FPS2)  returns 0x00000000 (0000ms, 0255ms total)
T4C5C 001:457 JLINK_ReadReg(FPS3)  returns 0x00000000 (0000ms, 0255ms total)
T4C5C 001:457 JLINK_ReadReg(FPS4)  returns 0x00000000 (0000ms, 0255ms total)
T4C5C 001:457 JLINK_ReadReg(FPS5)  returns 0x00000000 (0000ms, 0255ms total)
T4C5C 001:457 JLINK_ReadReg(FPS6)  returns 0x00000000 (0000ms, 0255ms total)
T4C5C 001:457 JLINK_ReadReg(FPS7)  returns 0x00000000 (0000ms, 0255ms total)
T4C5C 001:457 JLINK_ReadReg(FPS8)  returns 0x00000000 (0000ms, 0255ms total)
T4C5C 001:457 JLINK_ReadReg(FPS9)  returns 0x00000000 (0000ms, 0255ms total)
T4C5C 001:457 JLINK_ReadReg(FPS10)  returns 0x00000000 (0000ms, 0255ms total)
T4C5C 001:457 JLINK_ReadReg(FPS11)  returns 0x00000000 (0000ms, 0255ms total)
T4C5C 001:457 JLINK_ReadReg(FPS12)  returns 0x00000000 (0000ms, 0255ms total)
T4C5C 001:457 JLINK_ReadReg(FPS13)  returns 0x00000000 (0000ms, 0255ms total)
T4C5C 001:457 JLINK_ReadReg(FPS14)  returns 0x00000000 (0000ms, 0255ms total)
T4C5C 001:457 JLINK_ReadReg(FPS15)  returns 0x00000000 (0000ms, 0255ms total)
T4C5C 001:457 JLINK_ReadReg(FPS16)  returns 0x00000000 (0000ms, 0255ms total)
T4C5C 001:457 JLINK_ReadReg(FPS17)  returns 0x00000000 (0000ms, 0255ms total)
T4C5C 001:457 JLINK_ReadReg(FPS18)  returns 0x00000000 (0000ms, 0255ms total)
T4C5C 001:457 JLINK_ReadReg(FPS19)  returns 0x00000000 (0000ms, 0255ms total)
T4C5C 001:457 JLINK_ReadReg(FPS20)  returns 0x00000000 (0000ms, 0255ms total)
T4C5C 001:457 JLINK_ReadReg(FPS21)  returns 0x00000000 (0000ms, 0255ms total)
T4C5C 001:457 JLINK_ReadReg(FPS22)  returns 0x00000000 (0000ms, 0255ms total)
T4C5C 001:457 JLINK_ReadReg(FPS23)  returns 0x00000000 (0000ms, 0255ms total)
T4C5C 001:457 JLINK_ReadReg(FPS24)  returns 0x00000000 (0000ms, 0255ms total)
T4C5C 001:457 JLINK_ReadReg(FPS25)  returns 0x00000000 (0000ms, 0255ms total)
T4C5C 001:457 JLINK_ReadReg(FPS26)  returns 0x00000000 (0000ms, 0255ms total)
T4C5C 001:457 JLINK_ReadReg(FPS27)  returns 0x00000000 (0001ms, 0256ms total)
T4C5C 001:458 JLINK_ReadReg(FPS28)  returns 0x00000000 (0000ms, 0256ms total)
T4C5C 001:458 JLINK_ReadReg(FPS29)  returns 0x00000000 (0000ms, 0256ms total)
T4C5C 001:458 JLINK_ReadReg(FPS30)  returns 0x00000000 (0000ms, 0256ms total)
T4C5C 001:458 JLINK_ReadReg(FPS31)  returns 0x00000000 (0000ms, 0256ms total)
T4F4C 001:458 JLINK_ReadMemEx(0x40000424, 0x0004 Bytes, ..., Flags = 0x02000000) -- CPU_ReadMem(4 bytes @ 0x40000424) - Data: 00 00 00 00  returns 0x04 (0001ms, 0257ms total)
T4F4C 001:459 JLINK_ReadMemEx(0x40000024, 0x0004 Bytes, ..., Flags = 0x02000000) -- CPU_ReadMem(4 bytes @ 0x40000024) - Data: 00 00 00 00  returns 0x04 (0000ms, 0257ms total)
T4F4C 001:459 JLINK_ReadMemEx(0x2000005C, 0x0004 Bytes, ..., Flags = 0x02000000) -- CPU_ReadMem(64 bytes @ 0x20000040) -- Updating C cache (64 bytes @ 0x20000040) -- Read from C cache (4 bytes @ 0x2000005C) - Data: 00 00 00 00  returns 0x04 (0000ms, 0257ms total)
T4F4C 001:460 JLINK_ReadMemEx(0x080078E4, 0x003C Bytes, ..., Flags = 0x02000000) -- CPU_ReadMem(128 bytes @ 0x080078C0) -- Updating C cache (128 bytes @ 0x080078C0) -- Read from C cache (60 bytes @ 0x080078E4) - Data: 33 D1 A7 F5 80 70 01 38 0A D1 03 98 41 F2 0E 23 ...  returns 0x3C (0001ms, 0258ms total)
T4F4C 001:461 JLINK_ReadMemEx(0x08007920, 0x003C Bytes, ..., Flags = 0x02000000) -- CPU_ReadMem(64 bytes @ 0x08007940) -- Updating C cache (64 bytes @ 0x08007940) -- Read from C cache (60 bytes @ 0x08007920) - Data: 5D FC 05 46 00 2D 04 DA 68 46 00 F0 89 F8 00 28 ...  returns 0x3C (0000ms, 0258ms total)
T4F4C 001:461 JLINK_ReadMemEx(0x0800795C, 0x003C Bytes, ..., Flags = 0x02000000) -- CPU_ReadMem(64 bytes @ 0x08007980) -- Updating C cache (64 bytes @ 0x08007980) -- Read from C cache (60 bytes @ 0x0800795C) - Data: 0B D0 03 DC 49 B1 01 29 04 D1 06 E0 07 29 04 D0 ...  returns 0x3C (0001ms, 0259ms total)
T4F4C 001:462 JLINK_ReadMemEx(0x08007998, 0x003C Bytes, ..., Flags = 0x02000000) -- CPU_ReadMem(64 bytes @ 0x080079C0) -- Updating C cache (64 bytes @ 0x080079C0) -- Read from C cache (60 bytes @ 0x08007998) - Data: 02 EB 80 00 01 EB C0 05 4F F4 1C 51 01 EB C0 06 ...  returns 0x3C (0000ms, 0259ms total)
T4F4C 001:462 JLINK_ReadMemEx(0x080079D4, 0x003C Bytes, ..., Flags = 0x02000000) -- CPU_ReadMem(64 bytes @ 0x08007A00) -- Updating C cache (64 bytes @ 0x08007A00) -- Read from C cache (60 bytes @ 0x080079D4) - Data: E8 D1 38 46 BD E8 F0 81 4F F0 80 40 40 6A 70 47 ...  returns 0x3C (0001ms, 0260ms total)
T4C5C 012:782 JLINK_ReadMemEx(0x080079E4, 0x0002 Bytes, ..., Flags = 0x02000000) -- Read from C cache (2 bytes @ 0x080079E4) - Data: FA F7  returns 0x02 (0000ms, 0260ms total)
T4C5C 012:782 JLINK_SetBPEx(Addr = 0x0800852E, Type = 0xFFFFFFF2)  returns 0x00000003 (0001ms, 0261ms total)
T4C5C 012:783 JLINK_SetBPEx(Addr = 0x08008554, Type = 0xFFFFFFF2)  returns 0x00000004 (0000ms, 0261ms total)
T4C5C 012:783 JLINK_Go() -- CPU_WriteMem(4 bytes @ 0xE0002000) -- CPU_WriteMem(4 bytes @ 0xE0002000) -- CPU_ReadMem(4 bytes @ 0xE0001000) -- CPU_WriteMem(4 bytes @ 0xE0002008) -- CPU_WriteMem(4 bytes @ 0xE000200C) (0001ms, 0262ms total)
T4C5C 012:885 JLINK_IsHalted()  returns FALSE (0000ms, 0262ms total)
T4C5C 012:986 JLINK_IsHalted()  returns FALSE (0000ms, 0262ms total)
T4C5C 013:087 JLINK_IsHalted()  returns FALSE (0000ms, 0262ms total)
T4C5C 013:187 JLINK_IsHalted()  returns FALSE (0000ms, 0262ms total)
T4C5C 013:289 JLINK_IsHalted()  returns FALSE (0001ms, 0263ms total)
T4C5C 013:390 JLINK_ReadMemU32(0xE0001004, 0x0001 Items, ...) -- CPU_ReadMem(4 bytes @ 0xE0001004) - Data: F2 4F 12 06  returns 0x01 (0000ms, 0262ms total)
T4F4C 013:391 JLINK_ReadMemEx(0x40000424, 0x0004 Bytes, ..., Flags = 0x02000000) -- CPU_ReadMem(4 bytes @ 0x40000424) - Data: 00 00 00 00  returns 0x04 (0001ms, 0263ms total)
T4F4C 013:392 JLINK_ReadMemEx(0x40000024, 0x0004 Bytes, ..., Flags = 0x02000000) -- CPU_ReadMem(4 bytes @ 0x40000024) - Data: 67 46 09 00  returns 0x04 (0000ms, 0263ms total)
T4F4C 013:393 JLINK_ReadMemEx(0x2000005C, 0x0004 Bytes, ..., Flags = 0x02000000) -- CPU_ReadMem(4 bytes @ 0x2000005C) - Data: 00 00 00 00  returns 0x04 (0001ms, 0264ms total)
T4C5C 013:397 JLINK_IsHalted()  returns FALSE (0000ms, 0264ms total)
T4C5C 013:498 JLINK_IsHalted()  returns FALSE (0000ms, 0264ms total)
T4C5C 013:599 JLINK_IsHalted()  returns FALSE (0000ms, 0264ms total)
T4C5C 013:700 JLINK_IsHalted()  returns FALSE (0001ms, 0265ms total)
T4C5C 013:802 JLINK_IsHalted()  returns FALSE (0000ms, 0264ms total)
T4C5C 013:903 JLINK_ReadMemU32(0xE0001004, 0x0001 Items, ...) - Data: F2 4F 12 06  returns 0x01 (0000ms, 0264ms total)
T4F4C 013:903 JLINK_ReadMemEx(0x40000424, 0x0004 Bytes, ..., Flags = 0x02000000) -- CPU_ReadMem(4 bytes @ 0x40000424) - Data: 01 00 00 00  returns 0x04 (0000ms, 0264ms total)
T4F4C 013:904 JLINK_ReadMemEx(0x40000024, 0x0004 Bytes, ..., Flags = 0x02000000) -- CPU_ReadMem(4 bytes @ 0x40000024) - Data: 24 D2 01 00  returns 0x04 (0000ms, 0264ms total)
T4F4C 013:904 JLINK_ReadMemEx(0x2000005C, 0x0004 Bytes, ..., Flags = 0x02000000) -- CPU_ReadMem(4 bytes @ 0x2000005C) - Data: 00 00 00 00  returns 0x04 (0000ms, 0264ms total)
T4C5C 013:905 JLINK_IsHalted()  returns FALSE (0001ms, 0265ms total)
T4C5C 014:007 JLINK_IsHalted()  returns FALSE (0001ms, 0265ms total)
T4C5C 014:109 JLINK_IsHalted()  returns FALSE (0000ms, 0264ms total)
T4C5C 014:210 JLINK_IsHalted()  returns FALSE (0001ms, 0265ms total)
T4C5C 014:311 JLINK_IsHalted()  returns FALSE (0000ms, 0264ms total)
T4C5C 014:412 JLINK_ReadMemU32(0xE0001004, 0x0001 Items, ...) - Data: F2 4F 12 06  returns 0x01 (0000ms, 0264ms total)
T4F4C 014:412 JLINK_ReadMemEx(0x40000424, 0x0004 Bytes, ..., Flags = 0x02000000) -- CPU_ReadMem(4 bytes @ 0x40000424) - Data: 01 00 00 00  returns 0x04 (0001ms, 0265ms total)
T4F4C 014:413 JLINK_ReadMemEx(0x40000024, 0x0004 Bytes, ..., Flags = 0x02000000) -- CPU_ReadMem(4 bytes @ 0x40000024) - Data: C3 98 09 00  returns 0x04 (0000ms, 0265ms total)
T4F4C 014:414 JLINK_ReadMemEx(0x2000005C, 0x0004 Bytes, ..., Flags = 0x02000000) -- CPU_ReadMem(4 bytes @ 0x2000005C) - Data: 00 00 00 00  returns 0x04 (0000ms, 0265ms total)
T4C5C 014:415 JLINK_IsHalted()  returns FALSE (0000ms, 0265ms total)
T4C5C 014:516 JLINK_IsHalted()  returns FALSE (0000ms, 0265ms total)
T4C5C 014:618 JLINK_IsHalted()  returns FALSE (0000ms, 0265ms total)
T4C5C 014:719 JLINK_IsHalted()  returns FALSE (0000ms, 0265ms total)
T4C5C 014:820 JLINK_IsHalted()  returns FALSE (0000ms, 0265ms total)
T4C5C 014:921 JLINK_IsHalted()  returns FALSE (0000ms, 0265ms total)
T4C5C 015:022 JLINK_ReadMemU32(0xE0001004, 0x0001 Items, ...) - Data: F2 4F 12 06  returns 0x01 (0000ms, 0265ms total)
T4F4C 015:022 JLINK_ReadMemEx(0x40000424, 0x0004 Bytes, ..., Flags = 0x02000000) -- CPU_ReadMem(4 bytes @ 0x40000424) - Data: 02 00 00 00  returns 0x04 (0001ms, 0266ms total)
T4F4C 015:026 JLINK_ReadMemEx(0x40000024, 0x0004 Bytes, ..., Flags = 0x02000000) -- CPU_ReadMem(4 bytes @ 0x40000024) - Data: 15 B4 03 00  returns 0x04 (0001ms, 0267ms total)
T4F4C 015:029 JLINK_ReadMemEx(0x2000005C, 0x0004 Bytes, ..., Flags = 0x02000000) -- CPU_ReadMem(4 bytes @ 0x2000005C) - Data: 00 00 00 00  returns 0x04 (0001ms, 0268ms total)
T4C5C 015:030 JLINK_IsHalted()  returns FALSE (0000ms, 0268ms total)
T4C5C 015:131 JLINK_IsHalted()  returns FALSE (0000ms, 0268ms total)
T4C5C 015:232 JLINK_IsHalted()  returns FALSE (0000ms, 0268ms total)
T4C5C 015:332 JLINK_IsHalted()  returns FALSE (0000ms, 0268ms total)
T4C5C 015:433 JLINK_IsHalted()  returns FALSE (0000ms, 0268ms total)
T4C5C 015:534 JLINK_ReadMemU32(0xE0001004, 0x0001 Items, ...) - Data: F2 4F 12 06  returns 0x01 (0000ms, 0268ms total)
T4F4C 015:534 JLINK_ReadMemEx(0x40000424, 0x0004 Bytes, ..., Flags = 0x02000000) -- CPU_ReadMem(4 bytes @ 0x40000424) - Data: 02 00 00 00  returns 0x04 (0000ms, 0268ms total)
T4F4C 015:534 JLINK_ReadMemEx(0x40000024, 0x0004 Bytes, ..., Flags = 0x02000000) -- CPU_ReadMem(4 bytes @ 0x40000024) - Data: 16 75 0B 00  returns 0x04 (0001ms, 0269ms total)
T4F4C 015:535 JLINK_ReadMemEx(0x2000005C, 0x0004 Bytes, ..., Flags = 0x02000000) -- CPU_ReadMem(4 bytes @ 0x2000005C) - Data: 00 00 00 00  returns 0x04 (0000ms, 0269ms total)
T4C5C 015:536 JLINK_IsHalted()  returns FALSE (0001ms, 0270ms total)
T4C5C 015:637 JLINK_IsHalted()  returns FALSE (0000ms, 0269ms total)
T4C5C 015:738 JLINK_IsHalted()  returns FALSE (0000ms, 0269ms total)
T4C5C 015:839 JLINK_IsHalted()  returns FALSE (0000ms, 0269ms total)
T4C5C 015:940 JLINK_IsHalted()  returns FALSE (0000ms, 0269ms total)
T4C5C 016:041 JLINK_IsHalted()  returns FALSE (0000ms, 0269ms total)
T4C5C 016:141 JLINK_ReadMemU32(0xE0001004, 0x0001 Items, ...) - Data: F2 4F 12 06  returns 0x01 (0000ms, 0269ms total)
T4F4C 016:142 JLINK_ReadMemEx(0x40000424, 0x0004 Bytes, ..., Flags = 0x02000000) -- CPU_ReadMem(4 bytes @ 0x40000424) - Data: 03 00 00 00  returns 0x04 (0000ms, 0269ms total)
T4F4C 016:142 JLINK_ReadMemEx(0x40000024, 0x0004 Bytes, ..., Flags = 0x02000000) -- CPU_ReadMem(4 bytes @ 0x40000024) - Data: 88 78 05 00  returns 0x04 (0001ms, 0270ms total)
T4F4C 016:143 JLINK_ReadMemEx(0x2000005C, 0x0004 Bytes, ..., Flags = 0x02000000) -- CPU_ReadMem(4 bytes @ 0x2000005C) - Data: 00 00 00 00  returns 0x04 (0000ms, 0270ms total)
T4C5C 016:144 JLINK_IsHalted()  returns FALSE (0000ms, 0270ms total)
T4C5C 016:246 JLINK_IsHalted()  returns FALSE (0000ms, 0270ms total)
T4C5C 016:347 JLINK_IsHalted()  returns TRUE (0002ms, 0272ms total)
T4C5C 016:349 JLINK_Halt()  returns 0x00 (0000ms, 0270ms total)
T4C5C 016:349 JLINK_IsHalted()  returns TRUE (0000ms, 0270ms total)
T4C5C 016:349 JLINK_IsHalted()  returns TRUE (0000ms, 0270ms total)
T4C5C 016:349 JLINK_IsHalted()  returns TRUE (0000ms, 0270ms total)
T4C5C 016:349 JLINK_ReadReg(R15 (PC))  returns 0x0800852E (0000ms, 0270ms total)
T4C5C 016:349 JLINK_ReadReg(XPSR)  returns 0x61000000 (0000ms, 0270ms total)
T4C5C 016:349 JLINK_ClrBPEx(BPHandle = 0x00000003)  returns 0x00 (0000ms, 0270ms total)
T4C5C 016:349 JLINK_ClrBPEx(BPHandle = 0x00000004)  returns 0x00 (0000ms, 0270ms total)
T4C5C 016:349 JLINK_ReadMemU32(0xE000ED30, 0x0001 Items, ...) -- CPU_ReadMem(4 bytes @ 0xE000ED30) - Data: 02 00 00 00  returns 0x01 (0000ms, 0270ms total)
T4C5C 016:349 JLINK_ReadMemU32(0xE0001028, 0x0001 Items, ...) -- CPU_ReadMem(4 bytes @ 0xE0001028) - Data: 00 00 00 00  returns 0x01 (0000ms, 0270ms total)
T4C5C 016:349 JLINK_ReadMemU32(0xE0001038, 0x0001 Items, ...) -- CPU_ReadMem(4 bytes @ 0xE0001038) - Data: 00 02 00 00  returns 0x01 (0001ms, 0271ms total)
T4C5C 016:350 JLINK_ReadMemU32(0xE0001048, 0x0001 Items, ...) -- CPU_ReadMem(4 bytes @ 0xE0001048) - Data: 00 00 00 00  returns 0x01 (0000ms, 0271ms total)
T4C5C 016:350 JLINK_ReadMemU32(0xE0001058, 0x0001 Items, ...) -- CPU_ReadMem(4 bytes @ 0xE0001058) - Data: 00 00 00 00  returns 0x01 (0000ms, 0271ms total)
T4C5C 016:350 JLINK_ReadReg(R0)  returns 0x00000013 (0000ms, 0271ms total)
T4C5C 016:350 JLINK_ReadReg(R1)  returns 0x0800881B (0000ms, 0271ms total)
T4C5C 016:350 JLINK_ReadReg(R2)  returns 0x0800881C (0000ms, 0271ms total)
T4C5C 016:350 JLINK_ReadReg(R3)  returns 0x0800797F (0000ms, 0271ms total)
T4C5C 016:350 JLINK_ReadReg(R4)  returns 0x08007A0C (0000ms, 0271ms total)
T4C5C 016:350 JLINK_ReadReg(R5)  returns 0x2000C120 (0000ms, 0271ms total)
T4C5C 016:350 JLINK_ReadReg(R6)  returns 0x00000000 (0000ms, 0271ms total)
T4C5C 016:350 JLINK_ReadReg(R7)  returns 0x00000000 (0000ms, 0271ms total)
T4C5C 016:350 JLINK_ReadReg(R8)  returns 0x00000000 (0000ms, 0271ms total)
T4C5C 016:350 JLINK_ReadReg(R9)  returns 0x00000000 (0000ms, 0271ms total)
T4C5C 016:350 JLINK_ReadReg(R10)  returns 0x0800EAA8 (0000ms, 0271ms total)
T4C5C 016:350 JLINK_ReadReg(R11)  returns 0x00000000 (0000ms, 0271ms total)
T4C5C 016:350 JLINK_ReadReg(R12)  returns 0x00000003 (0000ms, 0271ms total)
T4C5C 016:350 JLINK_ReadReg(R13 (SP))  returns 0x2000C748 (0000ms, 0271ms total)
T4C5C 016:350 JLINK_ReadReg(R14)  returns 0x08000EA5 (0000ms, 0271ms total)
T4C5C 016:350 JLINK_ReadReg(R15 (PC))  returns 0x0800852E (0000ms, 0271ms total)
T4C5C 016:350 JLINK_ReadReg(XPSR)  returns 0x61000000 (0000ms, 0271ms total)
T4C5C 016:350 JLINK_ReadReg(MSP)  returns 0x2000C748 (0000ms, 0271ms total)
T4C5C 016:350 JLINK_ReadReg(PSP)  returns 0x00000000 (0000ms, 0271ms total)
T4C5C 016:350 JLINK_ReadReg(CFBP)  returns 0x04000000 (0000ms, 0271ms total)
T4C5C 016:350 JLINK_ReadReg(FPSCR)  returns 0x03000000 (0004ms, 0275ms total)
T4C5C 016:354 JLINK_ReadReg(FPS0)  returns 0x00000000 (0000ms, 0275ms total)
T4C5C 016:354 JLINK_ReadReg(FPS1)  returns 0x00000000 (0000ms, 0275ms total)
T4C5C 016:354 JLINK_ReadReg(FPS2)  returns 0x00000000 (0000ms, 0275ms total)
T4C5C 016:354 JLINK_ReadReg(FPS3)  returns 0x00000000 (0000ms, 0275ms total)
T4C5C 016:354 JLINK_ReadReg(FPS4)  returns 0x00000000 (0000ms, 0275ms total)
T4C5C 016:354 JLINK_ReadReg(FPS5)  returns 0x00000000 (0000ms, 0275ms total)
T4C5C 016:354 JLINK_ReadReg(FPS6)  returns 0x00000000 (0000ms, 0275ms total)
T4C5C 016:354 JLINK_ReadReg(FPS7)  returns 0x00000000 (0000ms, 0275ms total)
T4C5C 016:354 JLINK_ReadReg(FPS8)  returns 0x00000000 (0000ms, 0275ms total)
T4C5C 016:354 JLINK_ReadReg(FPS9)  returns 0x00000000 (0000ms, 0275ms total)
T4C5C 016:354 JLINK_ReadReg(FPS10)  returns 0x00000000 (0000ms, 0275ms total)
T4C5C 016:354 JLINK_ReadReg(FPS11)  returns 0x00000000 (0000ms, 0275ms total)
T4C5C 016:354 JLINK_ReadReg(FPS12)  returns 0x00000000 (0000ms, 0275ms total)
T4C5C 016:354 JLINK_ReadReg(FPS13)  returns 0x00000000 (0000ms, 0275ms total)
T4C5C 016:354 JLINK_ReadReg(FPS14)  returns 0x00000000 (0000ms, 0275ms total)
T4C5C 016:354 JLINK_ReadReg(FPS15)  returns 0x00000000 (0000ms, 0275ms total)
T4C5C 016:354 JLINK_ReadReg(FPS16)  returns 0x00000000 (0000ms, 0275ms total)
T4C5C 016:354 JLINK_ReadReg(FPS17)  returns 0x00000000 (0000ms, 0275ms total)
T4C5C 016:354 JLINK_ReadReg(FPS18)  returns 0x00000000 (0000ms, 0275ms total)
T4C5C 016:354 JLINK_ReadReg(FPS19)  returns 0x00000000 (0000ms, 0275ms total)
T4C5C 016:354 JLINK_ReadReg(FPS20)  returns 0x00000000 (0000ms, 0275ms total)
T4C5C 016:354 JLINK_ReadReg(FPS21)  returns 0x00000000 (0000ms, 0275ms total)
T4C5C 016:354 JLINK_ReadReg(FPS22)  returns 0x00000000 (0000ms, 0275ms total)
T4C5C 016:354 JLINK_ReadReg(FPS23)  returns 0x00000000 (0000ms, 0275ms total)
T4C5C 016:354 JLINK_ReadReg(FPS24)  returns 0x00000000 (0000ms, 0275ms total)
T4C5C 016:354 JLINK_ReadReg(FPS25)  returns 0x00000000 (0000ms, 0275ms total)
T4C5C 016:354 JLINK_ReadReg(FPS26)  returns 0x00000000 (0000ms, 0275ms total)
T4C5C 016:354 JLINK_ReadReg(FPS27)  returns 0x00000000 (0000ms, 0275ms total)
T4C5C 016:354 JLINK_ReadReg(FPS28)  returns 0x00000000 (0000ms, 0275ms total)
T4C5C 016:354 JLINK_ReadReg(FPS29)  returns 0x00000000 (0000ms, 0275ms total)
T4C5C 016:354 JLINK_ReadReg(FPS30)  returns 0x00000000 (0000ms, 0275ms total)
T4C5C 016:354 JLINK_ReadReg(FPS31)  returns 0x00000000 (0000ms, 0275ms total)
T4F4C 016:354 JLINK_ReadMemEx(0x2000C77C, 0x0004 Bytes, ..., Flags = 0x02000000) -- CPU_ReadMem(64 bytes @ 0x2000C740) -- Updating C cache (64 bytes @ 0x2000C740) -- Read from C cache (4 bytes @ 0x2000C77C) - Data: 0B 7A 00 08  returns 0x04 (0001ms, 0276ms total)
T4F4C 016:355 JLINK_ReadMemEx(0x2000C764, 0x0004 Bytes, ..., Flags = 0x02000000) -- Read from C cache (4 bytes @ 0x2000C764) - Data: 00 00 00 00  returns 0x04 (0000ms, 0276ms total)
T4F4C 016:355 JLINK_ReadMemEx(0x2000C768, 0x0004 Bytes, ..., Flags = 0x02000000) -- Read from C cache (4 bytes @ 0x2000C768) - Data: 20 C1 00 20  returns 0x04 (0000ms, 0276ms total)
T4F4C 016:355 JLINK_ReadMemEx(0x2000C76C, 0x0004 Bytes, ..., Flags = 0x02000000) -- Read from C cache (4 bytes @ 0x2000C76C) - Data: 00 00 00 00  returns 0x04 (0000ms, 0276ms total)
T4F4C 016:355 JLINK_ReadMemEx(0x2000C770, 0x0004 Bytes, ..., Flags = 0x02000000) -- Read from C cache (4 bytes @ 0x2000C770) - Data: 00 00 00 00  returns 0x04 (0000ms, 0276ms total)
T4F4C 016:355 JLINK_ReadMemEx(0x2000C774, 0x0004 Bytes, ..., Flags = 0x02000000) -- Read from C cache (4 bytes @ 0x2000C774) - Data: 00 00 00 00  returns 0x04 (0000ms, 0276ms total)
T4F4C 016:355 JLINK_ReadMemEx(0x2000C778, 0x0004 Bytes, ..., Flags = 0x02000000) -- Read from C cache (4 bytes @ 0x2000C778) - Data: 00 00 00 00  returns 0x04 (0000ms, 0276ms total)
T4F4C 016:355 JLINK_ReadMemEx(0x08007A0C, 0x0020 Bytes, ..., Flags = 0x02000000) -- CPU_ReadMem(64 bytes @ 0x08007A00) -- Updating C cache (64 bytes @ 0x08007A00) -- Read from C cache (32 bytes @ 0x08007A0C) - Data: 54 00 00 00 7C B5 04 46 FF F7 B4 FF 05 46 FF F7 ...  returns 0x20 (0001ms, 0277ms total)
T4F4C 016:356 JLINK_ReadMemEx(0x00000000, 0x0004 Bytes, ..., Flags = 0x02000000) -- CPU_ReadMem(4 bytes @ 0x00000004) -- CPU_ReadMem(64 bytes @ 0x08000000) -- Updating C cache (64 bytes @ 0x08000000) -- Read from C cache (4 bytes @ 0x08000000) - Data: 80 C7 00 20  returns 0x04 (0001ms, 0278ms total)
T4F4C 016:358 JLINK_ReadMemEx(0x40000424, 0x0004 Bytes, ..., Flags = 0x02000000) -- CPU_ReadMem(4 bytes @ 0x40000424) - Data: 03 00 00 00  returns 0x04 (0000ms, 0278ms total)
T4F4C 016:359 JLINK_ReadMemEx(0x40000024, 0x0004 Bytes, ..., Flags = 0x02000000) -- CPU_ReadMem(4 bytes @ 0x40000024) - Data: F6 C3 08 00  returns 0x04 (0000ms, 0278ms total)
T4F4C 016:359 JLINK_ReadMemEx(0x2000005C, 0x0004 Bytes, ..., Flags = 0x02000000) -- CPU_ReadMem(64 bytes @ 0x20000040) -- Updating C cache (64 bytes @ 0x20000040) -- Read from C cache (4 bytes @ 0x2000005C) - Data: 00 00 00 00  returns 0x04 (0001ms, 0279ms total)
T4F4C 016:367 JLINK_ReadMemEx(0x08008528, 0x003C Bytes, ..., Flags = 0x02000000) -- CPU_ReadMem(128 bytes @ 0x08008500) -- Updating C cache (128 bytes @ 0x08008500) -- Read from C cache (60 bytes @ 0x08008528) - Data: B7 A0 F7 F7 C5 FE 20 46 FA F7 EC FA 00 28 7C D0 ...  returns 0x3C (0000ms, 0279ms total)
T4C5C 018:831 JLINK_ReadMemEx(0x0800852E, 0x0002 Bytes, ..., Flags = 0x02000000) -- Read from C cache (2 bytes @ 0x0800852E) - Data: 20 46  returns 0x02 (0000ms, 0279ms total)
T4C5C 018:831 JLINK_SetBPEx(Addr = 0x08008554, Type = 0xFFFFFFF2)  returns 0x00000005 (0000ms, 0279ms total)
T4C5C 018:831 JLINK_Go() -- CPU_WriteMem(4 bytes @ 0xE0002000) -- CPU_ReadMem(4 bytes @ 0xE0001000) -- CPU_WriteMem(4 bytes @ 0xE0002008) -- CPU_WriteMem(4 bytes @ 0xE000200C) (0001ms, 0280ms total)
T4C5C 018:934 JLINK_IsHalted()  returns FALSE (0000ms, 0280ms total)
T4C5C 019:035 JLINK_IsHalted()  returns FALSE (0000ms, 0280ms total)
T4C5C 019:135 JLINK_IsHalted()  returns FALSE (0000ms, 0280ms total)
T4C5C 019:236 JLINK_IsHalted()  returns TRUE (0002ms, 0282ms total)
T4C5C 019:238 JLINK_Halt()  returns 0x00 (0000ms, 0280ms total)
T4C5C 019:238 JLINK_IsHalted()  returns TRUE (0000ms, 0280ms total)
T4C5C 019:238 JLINK_IsHalted()  returns TRUE (0000ms, 0280ms total)
T4C5C 019:238 JLINK_IsHalted()  returns TRUE (0000ms, 0280ms total)
T4C5C 019:238 JLINK_ReadReg(R15 (PC))  returns 0x08008554 (0000ms, 0280ms total)
T4C5C 019:238 JLINK_ReadReg(XPSR)  returns 0x21000000 (0000ms, 0280ms total)
T4C5C 019:238 JLINK_ClrBPEx(BPHandle = 0x00000005)  returns 0x00 (0000ms, 0280ms total)
T4C5C 019:238 JLINK_ReadMemU32(0xE000ED30, 0x0001 Items, ...) -- CPU_ReadMem(4 bytes @ 0xE000ED30) - Data: 02 00 00 00  returns 0x01 (0001ms, 0281ms total)
T4C5C 019:239 JLINK_ReadMemU32(0xE0001028, 0x0001 Items, ...) -- CPU_ReadMem(4 bytes @ 0xE0001028) - Data: 00 00 00 00  returns 0x01 (0000ms, 0281ms total)
T4C5C 019:239 JLINK_ReadMemU32(0xE0001038, 0x0001 Items, ...) -- CPU_ReadMem(4 bytes @ 0xE0001038) - Data: 00 02 00 00  returns 0x01 (0000ms, 0281ms total)
T4C5C 019:239 JLINK_ReadMemU32(0xE0001048, 0x0001 Items, ...) -- CPU_ReadMem(4 bytes @ 0xE0001048) - Data: 00 00 00 00  returns 0x01 (0000ms, 0281ms total)
T4C5C 019:239 JLINK_ReadMemU32(0xE0001058, 0x0001 Items, ...) -- CPU_ReadMem(4 bytes @ 0xE0001058) - Data: 00 00 00 00  returns 0x01 (0001ms, 0282ms total)
T4C5C 019:240 JLINK_ReadReg(R0)  returns 0x40020000 (0000ms, 0282ms total)
T4C5C 019:240 JLINK_ReadReg(R1)  returns 0x00000001 (0000ms, 0282ms total)
T4C5C 019:240 JLINK_ReadReg(R2)  returns 0x00000036 (0000ms, 0282ms total)
T4C5C 019:240 JLINK_ReadReg(R3)  returns 0x00000000 (0000ms, 0282ms total)
T4C5C 019:240 JLINK_ReadReg(R4)  returns 0x08007A0C (0000ms, 0282ms total)
T4C5C 019:240 JLINK_ReadReg(R5)  returns 0x2000C120 (0000ms, 0282ms total)
T4C5C 019:240 JLINK_ReadReg(R6)  returns 0x00000000 (0000ms, 0282ms total)
T4C5C 019:240 JLINK_ReadReg(R7)  returns 0x00000000 (0000ms, 0282ms total)
T4C5C 019:240 JLINK_ReadReg(R8)  returns 0x00000000 (0000ms, 0282ms total)
T4C5C 019:240 JLINK_ReadReg(R9)  returns 0x00000000 (0000ms, 0282ms total)
T4C5C 019:240 JLINK_ReadReg(R10)  returns 0x0800EAA8 (0000ms, 0282ms total)
T4C5C 019:240 JLINK_ReadReg(R11)  returns 0x00000000 (0000ms, 0282ms total)
T4C5C 019:240 JLINK_ReadReg(R12)  returns 0x000004B4 (0000ms, 0282ms total)
T4C5C 019:240 JLINK_ReadReg(R13 (SP))  returns 0x2000C748 (0000ms, 0282ms total)
T4C5C 019:240 JLINK_ReadReg(R14)  returns 0x08008555 (0000ms, 0282ms total)
T4C5C 019:240 JLINK_ReadReg(R15 (PC))  returns 0x08008554 (0000ms, 0282ms total)
T4C5C 019:240 JLINK_ReadReg(XPSR)  returns 0x21000000 (0000ms, 0282ms total)
T4C5C 019:240 JLINK_ReadReg(MSP)  returns 0x2000C748 (0000ms, 0282ms total)
T4C5C 019:240 JLINK_ReadReg(PSP)  returns 0x00000000 (0000ms, 0282ms total)
T4C5C 019:240 JLINK_ReadReg(CFBP)  returns 0x04000000 (0000ms, 0282ms total)
T4C5C 019:240 JLINK_ReadReg(FPSCR)  returns 0x03000000 (0003ms, 0285ms total)
T4C5C 019:243 JLINK_ReadReg(FPS0)  returns 0x00000000 (0000ms, 0285ms total)
T4C5C 019:243 JLINK_ReadReg(FPS1)  returns 0x00000000 (0000ms, 0285ms total)
T4C5C 019:243 JLINK_ReadReg(FPS2)  returns 0x00000000 (0000ms, 0285ms total)
T4C5C 019:243 JLINK_ReadReg(FPS3)  returns 0x00000000 (0000ms, 0285ms total)
T4C5C 019:243 JLINK_ReadReg(FPS4)  returns 0x00000000 (0000ms, 0285ms total)
T4C5C 019:243 JLINK_ReadReg(FPS5)  returns 0x00000000 (0000ms, 0285ms total)
T4C5C 019:243 JLINK_ReadReg(FPS6)  returns 0x00000000 (0000ms, 0285ms total)
T4C5C 019:243 JLINK_ReadReg(FPS7)  returns 0x00000000 (0000ms, 0285ms total)
T4C5C 019:243 JLINK_ReadReg(FPS8)  returns 0x00000000 (0000ms, 0285ms total)
T4C5C 019:243 JLINK_ReadReg(FPS9)  returns 0x00000000 (0000ms, 0285ms total)
T4C5C 019:243 JLINK_ReadReg(FPS10)  returns 0x00000000 (0000ms, 0285ms total)
T4C5C 019:243 JLINK_ReadReg(FPS11)  returns 0x00000000 (0000ms, 0285ms total)
T4C5C 019:243 JLINK_ReadReg(FPS12)  returns 0x00000000 (0000ms, 0285ms total)
T4C5C 019:243 JLINK_ReadReg(FPS13)  returns 0x00000000 (0000ms, 0285ms total)
T4C5C 019:243 JLINK_ReadReg(FPS14)  returns 0x00000000 (0000ms, 0285ms total)
T4C5C 019:243 JLINK_ReadReg(FPS15)  returns 0x00000000 (0000ms, 0285ms total)
T4C5C 019:243 JLINK_ReadReg(FPS16)  returns 0x00000000 (0000ms, 0285ms total)
T4C5C 019:243 JLINK_ReadReg(FPS17)  returns 0x00000000 (0000ms, 0285ms total)
T4C5C 019:243 JLINK_ReadReg(FPS18)  returns 0x00000000 (0000ms, 0285ms total)
T4C5C 019:243 JLINK_ReadReg(FPS19)  returns 0x00000000 (0000ms, 0285ms total)
T4C5C 019:243 JLINK_ReadReg(FPS20)  returns 0x00000000 (0000ms, 0285ms total)
T4C5C 019:243 JLINK_ReadReg(FPS21)  returns 0x00000000 (0000ms, 0285ms total)
T4C5C 019:243 JLINK_ReadReg(FPS22)  returns 0x00000000 (0000ms, 0285ms total)
T4C5C 019:243 JLINK_ReadReg(FPS23)  returns 0x00000000 (0000ms, 0285ms total)
T4C5C 019:243 JLINK_ReadReg(FPS24)  returns 0x00000000 (0000ms, 0285ms total)
T4C5C 019:243 JLINK_ReadReg(FPS25)  returns 0x00000000 (0000ms, 0285ms total)
T4C5C 019:243 JLINK_ReadReg(FPS26)  returns 0x00000000 (0000ms, 0285ms total)
T4C5C 019:243 JLINK_ReadReg(FPS27)  returns 0x00000000 (0000ms, 0285ms total)
T4C5C 019:243 JLINK_ReadReg(FPS28)  returns 0x00000000 (0000ms, 0285ms total)
T4C5C 019:243 JLINK_ReadReg(FPS29)  returns 0x00000000 (0000ms, 0285ms total)
T4C5C 019:243 JLINK_ReadReg(FPS30)  returns 0x00000000 (0000ms, 0285ms total)
T4C5C 019:243 JLINK_ReadReg(FPS31)  returns 0x00000000 (0000ms, 0285ms total)
T4F4C 019:243 JLINK_ReadMemEx(0x2000C77C, 0x0004 Bytes, ..., Flags = 0x02000000) -- CPU_ReadMem(64 bytes @ 0x2000C740) -- Updating C cache (64 bytes @ 0x2000C740) -- Read from C cache (4 bytes @ 0x2000C77C) - Data: 0B 7A 00 08  returns 0x04 (0000ms, 0285ms total)
T4F4C 019:243 JLINK_ReadMemEx(0x2000C764, 0x0004 Bytes, ..., Flags = 0x02000000) -- Read from C cache (4 bytes @ 0x2000C764) - Data: 00 00 00 00  returns 0x04 (0000ms, 0285ms total)
T4F4C 019:243 JLINK_ReadMemEx(0x2000C768, 0x0004 Bytes, ..., Flags = 0x02000000) -- Read from C cache (4 bytes @ 0x2000C768) - Data: 20 C1 00 20  returns 0x04 (0000ms, 0285ms total)
T4F4C 019:243 JLINK_ReadMemEx(0x2000C76C, 0x0004 Bytes, ..., Flags = 0x02000000) -- Read from C cache (4 bytes @ 0x2000C76C) - Data: 00 00 00 00  returns 0x04 (0000ms, 0285ms total)
T4F4C 019:243 JLINK_ReadMemEx(0x2000C770, 0x0004 Bytes, ..., Flags = 0x02000000) -- Read from C cache (4 bytes @ 0x2000C770) - Data: 00 00 00 00  returns 0x04 (0000ms, 0285ms total)
T4F4C 019:243 JLINK_ReadMemEx(0x2000C774, 0x0004 Bytes, ..., Flags = 0x02000000) -- Read from C cache (4 bytes @ 0x2000C774) - Data: 00 00 00 00  returns 0x04 (0000ms, 0285ms total)
T4F4C 019:243 JLINK_ReadMemEx(0x2000C778, 0x0004 Bytes, ..., Flags = 0x02000000) -- Read from C cache (4 bytes @ 0x2000C778) - Data: 00 00 00 00  returns 0x04 (0000ms, 0285ms total)
T4F4C 019:243 JLINK_ReadMemEx(0x08007A0C, 0x0020 Bytes, ..., Flags = 0x02000000) -- CPU_ReadMem(64 bytes @ 0x08007A00) -- Updating C cache (64 bytes @ 0x08007A00) -- Read from C cache (32 bytes @ 0x08007A0C) - Data: 54 00 00 00 7C B5 04 46 FF F7 B4 FF 05 46 FF F7 ...  returns 0x20 (0001ms, 0286ms total)
T4F4C 019:244 JLINK_ReadMemEx(0x00000000, 0x0004 Bytes, ..., Flags = 0x02000000) -- CPU_ReadMem(4 bytes @ 0x00000004) -- CPU_ReadMem(64 bytes @ 0x08000000) -- Updating C cache (64 bytes @ 0x08000000) -- Read from C cache (4 bytes @ 0x08000000) - Data: 80 C7 00 20  returns 0x04 (0002ms, 0288ms total)
T4F4C 019:246 JLINK_ReadMemEx(0x40000424, 0x0004 Bytes, ..., Flags = 0x02000000) -- CPU_ReadMem(4 bytes @ 0x40000424) - Data: 06 00 00 00  returns 0x04 (0000ms, 0288ms total)
T4F4C 019:246 JLINK_ReadMemEx(0x40000024, 0x0004 Bytes, ..., Flags = 0x02000000) -- CPU_ReadMem(4 bytes @ 0x40000024) - Data: B2 10 07 00  returns 0x04 (0001ms, 0289ms total)
T4F4C 019:247 JLINK_ReadMemEx(0x2000005C, 0x0004 Bytes, ..., Flags = 0x02000000) -- CPU_ReadMem(64 bytes @ 0x20000040) -- Updating C cache (64 bytes @ 0x20000040) -- Read from C cache (4 bytes @ 0x2000005C) - Data: 03 00 00 00  returns 0x04 (0001ms, 0290ms total)
T4F4C 019:248 JLINK_ReadMemEx(0x0800854C, 0x003C Bytes, ..., Flags = 0x02000000) -- CPU_ReadMem(128 bytes @ 0x08008540) -- Updating C cache (128 bytes @ 0x08008540) -- Read from C cache (60 bytes @ 0x0800854C) - Data: 01 21 BB 48 F9 F7 02 FB FA F7 AC FA B9 4C 05 E0 ...  returns 0x3C (0001ms, 0291ms total)
T4C5C 024:120 JLINK_ReadMemEx(0x08008554, 0x0002 Bytes, ..., Flags = 0x02000000) -- Read from C cache (2 bytes @ 0x08008554) - Data: FA F7  returns 0x02 (0000ms, 0291ms total)
T4C5C 024:120 JLINK_Go() -- CPU_ReadMem(4 bytes @ 0xE0001000) -- CPU_WriteMem(4 bytes @ 0xE0002008) (0001ms, 0292ms total)
T4C5C 024:222 JLINK_IsHalted()  returns FALSE (0000ms, 0292ms total)
T4C5C 024:323 JLINK_IsHalted()  returns FALSE (0000ms, 0292ms total)
T4C5C 024:424 JLINK_IsHalted()  returns FALSE (0001ms, 0293ms total)
T4C5C 024:525 JLINK_IsHalted()  returns FALSE (0000ms, 0292ms total)
T4C5C 024:626 JLINK_IsHalted()  returns FALSE (0000ms, 0292ms total)
T4C5C 024:727 JLINK_ReadMemU32(0xE0001004, 0x0001 Items, ...) -- CPU_ReadMem(4 bytes @ 0xE0001004) - Data: C5 D2 01 2C  returns 0x01 (0000ms, 0292ms total)
T4F4C 024:727 JLINK_ReadMemEx(0x40000424, 0x0004 Bytes, ..., Flags = 0x02000000) -- CPU_ReadMem(4 bytes @ 0x40000424) - Data: 0B 00 00 00  returns 0x04 (0001ms, 0293ms total)
T4F4C 024:729 JLINK_ReadMemEx(0x40000024, 0x0004 Bytes, ..., Flags = 0x02000000) -- CPU_ReadMem(4 bytes @ 0x40000024) - Data: F9 6D 0E 00  returns 0x04 (0000ms, 0293ms total)
